Vs,Vg,Vd,Is,Ig,Id,Ib,Qs,Qg,Qd,Qb,y
0.7,1.5,-2.3E-34,0.000211,-9.79E-31,-0.000211,-2.53E-16,8.3E-16,9.66E-15,-4.42E-15,-5.68E-15,0
0.7,1.5,2.5848E-32,0.000210619,2.57439E-32,-0.000210619,-7.44098E-15,8.30255E-16,9.66302E-15,-4.42349E-15,-5.68107E-15,0
0.7,1.45,6.46E-31,0.000205,-2.7E-31,-0.000205,-8.82E-15,8.43E-16,9.36E-15,-4.24E-15,-5.57E-15,0
0.7,1.45,1.56512E-32,0.000204571,1.28762E-32,-0.000204571,-2.56647E-16,8.43423E-16,9.35601E-15,-4.24078E-15,-5.57003E-15,0
0.7,1.5,0.038461538,0.000200306,3.86265E-31,-0.000200306,-3.33975E-16,8.29559E-16,9.54944E-15,-4.30943E-15,-5.68092E-15,0
0.7,1.4,1.08E-33,0.000198,-2.7E-31,-0.000198,-2.51E-16,8.57E-16,9.06E-15,-4.07E-15,-5.46E-15,0
0.7,1.4,5.45435E-33,0.000197815,-3.09016E-31,-0.000197815,-2.71818E-16,8.56908E-16,9.0619E-15,-4.06564E-15,-5.46463E-15,0
0.7,1.45,0.038461538,0.00019441,-2.44637E-31,-0.00019441,-3.80527E-16,8.4269E-16,9.2376E-15,-4.12349E-15,-5.56824E-15,0
0.6,1.5,-5.79E-34,0.000194,-6.18E-31,-0.000194,-2.71E-16,7.77E-16,1E-14,-4.62E-15,-5.8E-15,0
0.6,1.5,1.81437E-33,0.000193921,1.28757E-31,-0.000193921,-2.60989E-16,7.77176E-16,1.0029E-14,-4.61806E-15,-5.79941E-15,0
0.7,1.35,1.56512E-32,0.000190309,2.06011E-31,-0.000190309,-2.85419E-16,8.70753E-16,8.78121E-15,-3.89817E-15,-5.36534E-15,0
0.7,1.35,-1.43E-33,0.00019,-2.06E-31,-0.00019,-2.51E-16,8.71E-16,8.78E-15,-3.9E-15,-5.37E-15,0
0.7,1.5,0.076923077,0.000189854,6.88843E-31,-0.000189854,-3.38097E-16,8.2885E-16,9.43474E-15,-4.19478E-15,-5.68023E-15,0
0.6,1.45,4.36357E-33,0.000189491,-2.30137E-37,-0.000189491,-2.66071E-16,7.89531E-16,9.68815E-15,-4.41416E-15,-5.67492E-15,0
0.6,1.45,-5E-34,0.000189,4.12E-31,-0.000189,-3.12E-15,7.9E-16,9.69E-15,-4.41E-15,-5.67E-15,0
0.7,1.4,0.038461538,0.000187805,3.73396E-31,-0.000187805,-4.29076E-16,8.56131E-16,8.93847E-15,-3.94503E-15,-5.4611E-15,0
0.6,1.4,7.75E-34,0.000185,1.03E-31,-0.000185,-2.58E-16,8.02E-16,9.36E-15,-4.22E-15,-5.55E-15,0
0.6,1.4,-3.28404E-33,0.000184548,-1.15881E-31,-0.000184548,-2.21363E-16,8.02092E-16,9.35637E-15,-4.21585E-15,-5.55409E-15,0
0.7,1.45,0.076923077,0.000184126,-1.03005E-31,-0.000184126,-3.74429E-16,8.41943E-16,9.11799E-15,-4.00555E-15,-5.56588E-15,0
0.6,1.5,0.038461538,0.000182828,5.02122E-31,-0.000182828,-1.71661E-16,7.76732E-16,9.92182E-15,-4.50779E-15,-5.80213E-15,0
0.7,1.3,-5.20512E-30,0.000182083,1.24894E-30,-0.000182083,-8.88661E-15,8.84999E-16,8.51302E-15,-3.73761E-15,-5.27204E-15,0
0.7,1.3,-1.45E-33,0.000182,3.09E-31,-0.000182,-2.45E-16,8.85E-16,8.51E-15,-3.74E-15,-5.27E-15,0
0.7,1.35,0.038461538,0.000180435,1.67384E-31,-0.000180435,-5.65143E-16,8.69927E-16,8.65286E-15,-3.7743E-15,-5.36009E-15,0
0.7,1.5,0.115384615,0.000179259,7.08158E-31,-0.000179259,-3.42529E-16,8.28128E-16,9.31893E-15,-4.07951E-15,-5.67903E-15,0
0.6,1.35,8.33889E-32,0.000179009,5.76179E-31,-0.000179009,-4.75407E-16,8.14885E-16,9.0351E-15,-4.02393E-15,-5.43762E-15,0
0.6,1.35,8.1E-34,0.000179,2.58E-31,-0.000179,-2.35E-16,8.15E-16,9.04E-15,-4.02E-15,-5.44E-15,0
0.6,1.45,0.038461538,0.000178563,2.57494E-31,-0.000178563,-2.44319E-16,7.89064E-16,9.57687E-15,-4.30103E-15,-5.67636E-15,0
0.7,1.4,0.076923077,0.000177692,2.57515E-31,-0.000177692,-4.75181E-16,8.5534E-16,8.81371E-15,-3.82367E-15,-5.45696E-15,0
0.6,1.4,0.038461538,0.000173799,-3.75017E-31,-0.000173799,-2.76009E-16,8.01596E-16,9.24055E-15,-4.09962E-15,-5.55407E-15,0
0.7,1.45,0.115384615,0.000173716,9.33494E-32,-0.000173716,-3.79089E-16,8.41183E-16,8.99719E-15,-3.88694E-15,-5.563E-15,0
0.7,1.25,5.45435E-33,0.000173257,-3.86269E-32,-0.000173257,-2.55808E-16,8.99663E-16,8.25463E-15,-3.58222E-15,-5.18379E-15,0
0.7,1.25,-1.53E-33,0.000173,1.55E-31,-0.000173,-2.12E-16,9E-16,8.25E-15,-3.58E-15,-5.18E-15,0
0.6,1.3,1.31E-30,0.000173,-2.96E-31,-0.000173,-9.08E-15,8.28E-16,8.73E-15,-3.84E-15,-5.33E-15,0
0.6,1.3,1.81437E-33,0.000172781,1.22314E-31,-0.000172781,-2.57885E-16,8.27946E-16,8.72584E-15,-3.83913E-15,-5.3263E-15,0
0.5,1.5,-3.91301E-34,0.000172404,-2.22106E-31,-0.000172404,-2.24035E-16,7.22252E-16,1.04644E-14,-4.85787E-15,-5.94015E-15,0
0.7,1.3,0.038461538,0.000172313,1.28752E-31,-0.000172313,-6.97287E-16,8.84123E-16,8.38019E-15,-3.61076E-15,-5.26524E-15,0
0.5,1.5,-1.32E-34,0.000172,-3.61E-31,-0.000172,-2.06E-16,7.22E-16,1.05E-14,-4.86E-15,-5.94E-15,0
0.6,1.5,0.076923077,0.000171558,-3.21918E-31,-0.000171558,-1.86728E-16,7.76282E-16,9.81359E-15,-4.39698E-15,-5.80432E-15,0
0.7,1.35,0.076923077,0.000170481,-6.57176E-38,-0.000170481,-5.67357E-16,8.69087E-16,8.52295E-15,-3.64956E-15,-5.35414E-15,0
0.5,1.45,-5.49002E-33,0.000169205,7.40352E-32,-0.000169205,-2.08993E-16,7.34116E-16,1.00996E-14,-4.63818E-15,-5.80695E-15,0
0.5,1.45,-1.32E-34,0.000169,1.09E-31,-0.000169,-1.46E-15,7.34E-16,1.01E-14,-4.64E-15,-5.81E-15,0
0.7,1.5,0.153846154,0.000168516,1.03005E-30,-0.000168516,-3.50333E-16,8.27392E-16,9.202E-15,-3.9636E-15,-5.67734E-15,0
0.6,1.35,0.038461538,0.000168452,-2.86494E-31,-0.000168452,-2.96635E-16,8.14354E-16,8.91434E-15,-3.90435E-15,-5.43597E-15,0
0.7,1.4,0.115384615,0.000167473,3.86284E-32,-0.000167473,-4.59201E-16,8.54535E-16,8.68762E-15,-3.70156E-15,-5.45224E-15,0
0.6,1.45,0.076923077,0.00016747,1.73805E-31,-0.00016747,-2.61321E-16,7.8859E-16,9.46449E-15,-4.18733E-15,-5.67726E-15,0
0.6,1.25,-1.7E-33,0.000166,1.8E-31,-0.000166,-2.22E-16,8.41E-16,8.43E-15,-3.66E-15,-5.22E-15,0
0.5,1.4,4.97E-33,0.000166,5.15E-32,-0.000166,-2.21E-16,7.46E-16,9.74E-15,-4.42E-15,-5.68E-15,0
0.6,1.25,1.20112E-32,0.000165788,2.31768E-31,-0.000165788,-1.91192E-16,8.4132E-16,8.42982E-15,-3.662E-15,-5.22087E-15,0
0.5,1.4,-3.91923E-34,0.000165674,9.01304E-32,-0.000165674,-2.0235E-16,7.46132E-16,9.74038E-15,-4.42211E-15,-5.67591E-15,0
0.7,1.2,3.55944E-34,0.000164004,5.40776E-31,-0.000164004,-2.47914E-16,9.14732E-16,8.00242E-15,-3.42982E-15,-5.09913E-15,0
0.7,1.2,4.84E-33,0.000164,2.58E-31,-0.000164,-2.02E-16,9.15E-16,8E-15,-3.43E-15,-5.1E-15,0
0.7,1.25,0.038461538,0.000163551,-1.28756E-31,-0.000163551,-7.52423E-16,8.9874E-16,8.11802E-15,-3.45279E-15,-5.17574E-15,0
0.7,1.45,0.153846154,0.000163177,-9.65667E-32,-0.000163177,-3.96567E-16,8.40409E-16,8.87521E-15,-3.76763E-15,-5.55961E-15,0
0.6,1.4,0.076923077,0.000162901,-7.72643E-32,-0.000162901,-2.70095E-16,8.01094E-16,9.12362E-15,-3.98279E-15,-5.55352E-15,0
0.7,1.3,0.076923077,0.00016249,1.03005E-30,-0.00016249,-6.61146E-16,8.83231E-16,8.24553E-15,-3.48288E-15,-5.25763E-15,0
0.6,1.3,0.038461538,0.000162427,-5.44011E-31,-0.000162427,-3.89507E-16,8.27374E-16,8.59981E-15,-3.71603E-15,-5.32286E-15,0
0.5,1.35,-1.52E-34,0.000162,4.64E-31,-0.000162,-2.34E-16,7.58E-16,9.39E-15,-4.21E-15,-5.55E-15,0
0.5,1.35,1.3048E-30,0.000161755,-1.15906E-36,-0.000161755,-2.57311E-15,7.58312E-16,9.38776E-15,-4.21024E-15,-5.54742E-15,0
0.7,1.35,0.115384615,0.000160448,1.03006E-31,-0.000160448,-5.8972E-16,8.68232E-16,8.39151E-15,-3.52393E-15,-5.34753E-15,0
0.5,1.5,0.038461538,0.000160429,-1.60946E-31,-0.000160429,-1.29932E-16,7.21945E-16,1.03621E-14,-4.75053E-15,-5.94488E-15,0
0.6,1.5,0.115384615,0.000160105,2.57493E-31,-0.000160105,-2.56836E-16,7.75825E-16,9.70427E-15,-4.28559E-15,-5.80599E-15,0
0.6,1.2,1.20112E-32,0.000158003,-4.37768E-31,-0.000158003,-2.36151E-16,8.55059E-16,8.14727E-15,-3.49245E-15,-5.12169E-15,0
0.6,1.2,2.16E-34,0.000158,1.42E-31,-0.000158,-1.79E-16,8.55E-16,8.15E-15,-3.49E-15,-5.12E-15,0
0.6,1.35,0.076923077,0.000157766,-4.50729E-32,-0.000157766,-2.83142E-16,8.13819E-16,8.79242E-15,-3.78415E-15,-5.43377E-15,0
0.7,1.5,0.192307692,0.000157624,1.1073E-30,-0.000157624,-3.91559E-16,8.26643E-16,9.08397E-15,-3.84702E-15,-5.67519E-15,0
0.5,1.45,0.038461538,0.000157393,-1.28756E-32,-0.000157393,-1.76403E-16,7.33795E-16,9.9939E-15,-4.52843E-15,-5.81074E-15,0
0.5,1.3,8.82056E-34,0.000157379,-3.4765E-31,-0.000157379,-2.26971E-16,7.70671E-16,9.04287E-15,-4.0032E-15,-5.422E-15,0
0.7,1.4,0.153846154,0.000157148,1.28758E-31,-0.000157148,-4.69021E-16,8.53716E-16,8.56024E-15,-3.57867E-15,-5.44698E-15,0
0.5,1.3,2.4E-33,0.000157,-2.29E-30,-0.000157,-1.89E-16,7.71E-16,9.04E-15,-4E-15,-5.42E-15,0
0.6,1.45,0.115384615,0.000156208,-7.083E-32,-0.000156208,-3.21504E-16,7.8811E-16,9.35104E-15,-4.07305E-15,-5.67766E-15,0
0.6,1.25,0.038461538,0.000155635,1.15881E-31,-0.000155635,-5.05594E-16,8.40699E-16,8.29837E-15,-3.53532E-15,-5.21554E-15,0
0.7,1.15,-9.18657E-34,0.000154472,1.93131E-31,-0.000154472,-2.39669E-16,9.30169E-16,7.75336E-15,-3.27865E-15,-5.01676E-15,0
0.7,1.2,0.038461538,0.000154328,1.28753E-31,-0.000154328,-6.31739E-16,9.13771E-16,7.86269E-15,-3.29817E-15,-5.09014E-15,0
0.5,1.4,0.038461538,0.000154042,-4.5064E-32,-0.000154042,-2.62106E-16,7.45794E-16,9.63102E-15,-4.30975E-15,-5.67862E-15,0
0.7,1.15,6.52E-31,0.000154,-2.58E-31,-0.000154,4.56E-14,9.3E-16,7.75E-15,-3.28E-15,-5.02E-15,0
0.7,1.25,0.076923077,0.000153815,-3.21892E-31,-0.000153815,-8.13317E-16,8.978E-16,7.97935E-15,-3.3222E-15,-5.16678E-15,0
0.7,1.3,0.115384615,0.000152617,4.89271E-31,-0.000152617,-7.05549E-16,8.82322E-16,8.10907E-15,-3.35395E-15,-5.24925E-15,0
0.7,1.45,0.192307692,0.000152508,2.9936E-31,-0.000152508,-3.99843E-16,8.3962E-16,8.75208E-15,-3.64762E-15,-5.55575E-15,0
0.5,1.25,8.81434E-34,0.000152465,-2.83259E-31,-0.000152465,-2.05916E-16,7.83231E-16,8.7071E-15,-3.80177E-15,-5.30031E-15,0
0.5,1.25,-1.14E-34,0.000152,1.03E-31,-0.000152,-5.5E-15,7.83E-16,8.71E-15,-3.8E-15,-5.3E-15,0
0.6,1.3,0.076923077,0.000151966,1.44207E-30,-0.000151966,-4.0085E-16,8.26797E-16,8.47252E-15,-3.59224E-15,-5.31883E-15,0
0.6,1.4,0.115384615,0.000151851,-2.89711E-31,-0.000151851,-2.95051E-16,8.00587E-16,9.00559E-15,-3.86536E-15,-5.55247E-15,0
0.7,1.35,0.153846154,0.000150337,2.12449E-31,-0.000150337,-5.72371E-16,8.67361E-16,8.25857E-15,-3.3974E-15,-5.34031E-15,0
0.5,1.35,0.038461538,0.00015032,-2.57514E-31,-0.00015032,-2.44733E-16,7.57954E-16,9.27434E-15,-4.09501E-15,-5.54891E-15,0
0.6,1.15,1.20112E-32,0.000149499,5.40775E-31,-0.000149499,-2.63484E-16,8.69206E-16,7.87661E-15,-3.32933E-15,-5.02838E-15,0
0.6,1.15,2.15E-34,0.000149,-1.16E-31,-0.000149,-1.92E-16,8.69E-16,7.88E-15,-3.33E-15,-5.03E-15,0
0.6,1.5,0.153846154,0.000148466,5.27886E-31,-0.000148466,-2.70644E-16,7.75361E-16,9.59387E-15,-4.17359E-15,-5.80718E-15,0
0.5,1.5,0.076923077,0.00014824,1.93136E-32,-0.00014824,-1.89461E-16,7.21634E-16,1.02586E-14,-4.64265E-15,-5.94904E-15,0
0.6,1.2,0.038461538,0.000148032,2.7039E-31,-0.000148032,-5.97216E-16,8.54382E-16,8.01064E-15,-3.36234E-15,-5.11454E-15,0
0.5,1.2,-1.14E-34,0.000147,3.09E-31,-0.000147,-2E-16,7.96E-16,8.38E-15,-3.61E-15,-5.18E-15,0
0.6,1.35,0.115384615,0.000146947,-2.09237E-31,-0.000146947,-3.73256E-16,8.13278E-16,8.66936E-15,-3.6633E-15,-5.43107E-15,0
0.5,1.2,-2.33843E-34,0.000146914,2.83266E-31,-0.000146914,-2.14087E-16,7.9602E-16,8.38204E-15,-3.60679E-15,-5.18311E-15,0
0.7,1.4,0.192307692,0.000146717,1.54509E-31,-0.000146717,-4.96692E-16,8.52882E-16,8.4316E-15,-3.45501E-15,-5.44122E-15,0
0.7,1.5,0.230769231,0.00014658,-4.76406E-31,-0.00014658,-1.22586E-16,8.2588E-16,8.96485E-15,-3.72977E-15,-5.6726E-15,0
0.4,1.5,3.15313E-33,0.000146379,-8.24048E-31,-0.000146379,-3.14973E-16,6.65737E-16,1.09497E-14,-5.13173E-15,-6.09505E-15,0
0.5,1.3,0.038461538,0.000146162,6.18028E-31,-0.000146162,-2.89433E-16,7.70288E-16,8.92496E-15,-3.88486E-15,-5.42211E-15,0
0.4,1.5,-1.75E-34,0.000146,-4.15E-31,-0.000146,-2.25E-16,6.66E-16,1.09E-14,-5.13E-15,-6.1E-15,0
0.6,1.25,0.076923077,0.000145403,-4.89276E-31,-0.000145403,-5.14552E-16,8.40073E-16,8.16548E-15,-3.40782E-15,-5.20956E-15,0
0.5,1.45,0.076923077,0.000145379,9.01296E-32,-0.000145379,-2.084E-16,7.33469E-16,9.88712E-15,-4.41815E-15,-5.81397E-15,0
0.7,1.1,-4.13E-34,0.000145,-6.7E-31,-0.000145,-2.11E-16,9.46E-16,7.51E-15,-3.13E-15,-4.94E-15,0
0.7,1.15,0.038461538,0.000144815,6.1803E-31,-0.000144815,-2.97975E-16,9.2918E-16,7.61088E-15,-3.14496E-15,-5.00703E-15,0
0.6,1.45,0.153846154,0.000144776,4.05573E-31,-0.000144776,-2.94429E-16,7.87624E-16,9.2365E-15,-3.95816E-15,-5.67758E-15,0
0.7,1.1,-4.74246E-33,0.000144757,-4.6353E-31,-0.000144757,-1.92807E-16,9.45932E-16,7.50559E-15,-3.12768E-15,-4.93581E-15,0
0.7,1.2,0.076923077,0.000144643,-1.48073E-31,-0.000144643,-7.9219E-16,9.12792E-16,7.72074E-15,-3.16526E-15,-5.08017E-15,0
0.4,1.45,-1.94527E-33,0.000144115,1.03005E-30,-0.000144115,-1.69735E-16,6.77248E-16,1.05682E-14,-4.90062E-15,-5.95629E-15,0
0.7,1.25,0.115384615,0.000144058,-4.4421E-31,-0.000144058,-8.1096E-16,8.96842E-16,7.83861E-15,-3.19039E-15,-5.15693E-15,0
0.4,1.45,-1.83E-34,0.000144,-3.54E-32,-0.000144,-1.67E-16,6.77E-16,1.06E-14,-4.9E-15,-5.96E-15,0
0.7,1.3,0.153846154,0.000142698,6.43779E-31,-0.000142698,-7.26731E-16,8.81397E-16,7.97083E-15,-3.22394E-15,-5.24014E-15,0
0.5,1.4,0.076923077,0.000142221,2.06012E-31,-0.000142221,-2.76591E-16,7.45452E-16,9.52059E-15,-4.19685E-15,-5.68079E-15,0
0.4,1.4,-1.93E-34,0.000142,2.19E-31,-0.000142,-1.95E-16,6.89E-16,1.02E-14,-4.67E-15,-5.82E-15,0
0.7,1.45,0.230769231,0.000141707,-9.65665E-32,-0.000141707,-3.75233E-16,8.38818E-16,8.62781E-15,-3.52691E-15,-5.55145E-15,0
0.4,1.4,-1.95025E-33,0.000141643,-2.57508E-31,-0.000141643,-2.02876E-16,6.88885E-16,1.01901E-14,-4.67177E-15,-5.81879E-15,0
0.5,1.25,0.038461538,0.000141487,-1.80254E-31,-0.000141487,-3.00952E-16,7.82819E-16,8.58425E-15,-3.68004E-15,-5.29882E-15,0
0.6,1.3,0.115384615,0.000141396,8.24033E-31,-0.000141396,-3.97926E-16,8.26216E-16,8.34399E-15,-3.46773E-15,-5.31427E-15,0
0.5,1.15,-1.19E-34,0.000141,5.15E-32,-0.000141,-2.07E-16,8.09E-16,8.07E-15,-3.42E-15,-5.07E-15,0
0.6,1.4,0.153846154,0.000140647,-9.97931E-32,-0.000140647,-3.51949E-16,8.00073E-16,8.88648E-15,-3.74731E-15,-5.55094E-15,0
0.5,1.15,1.67806E-33,0.000140627,-1.2232E-31,-0.000140627,-1.89055E-16,8.09078E-16,8.06935E-15,-3.41907E-15,-5.07127E-15,0
0.6,1.1,1.20112E-32,0.000140454,-1.67384E-31,-0.000140454,-2.35512E-16,8.83776E-16,7.61439E-15,-3.17048E-15,-4.93965E-15,0
0.7,1.35,0.192307692,0.000140149,2.83265E-31,-0.000140149,-5.64267E-16,8.66475E-16,8.12418E-15,-3.26996E-15,-5.33252E-15,0
0.6,1.1,5.22E-30,0.00014,1.55E-31,-0.00014,8.1E-15,8.84E-16,7.61E-15,-3.17E-15,-4.94E-15,0
0.6,1.15,0.038461538,0.000139668,3.81435E-31,-0.000139668,-7.90021E-16,8.68471E-16,7.73545E-15,-3.19618E-15,-5.01968E-15,0
0.4,1.35,-1.94E-34,0.000139,3.22E-31,-0.000139,-1.92E-16,7.01E-16,9.82E-15,-4.45E-15,-5.68E-15,0
0.4,1.35,-1.95522E-33,0.00013893,-2.57518E-32,-0.00013893,-1.83012E-16,7.00655E-16,9.81602E-15,-4.44553E-15,-5.68277E-15,0
0.5,1.35,0.076923077,0.000138712,-3.02579E-31,-0.000138712,-2.47004E-16,7.57592E-16,9.15986E-15,-3.97926E-15,-5.54988E-15,0
0.6,1.2,0.076923077,0.000138014,-3.09015E-31,-0.000138014,-6.17522E-16,8.537E-16,7.87228E-15,-3.23125E-15,-5.10664E-15,0
0.6,1.5,0.192307692,0.000136639,-1.28894E-32,-0.000136639,-3.14793E-16,7.7489E-16,9.48241E-15,-4.06098E-15,-5.8079E-15,0
0.5,1.2,0.038461538,0.000136197,-2.57518E-32,-0.000136197,-3.57487E-16,7.95572E-16,8.25378E-15,-3.4814E-15,-5.17983E-15,0
0.7,1.4,0.230769231,0.000136179,2.31764E-31,-0.000136179,-2.89786E-16,8.52034E-16,8.30173E-15,-3.33056E-15,-5.435E-15,0
0.4,1.3,-2.74E-33,0.000136,1.25E-30,-0.000136,-1.81E-16,7.13E-16,9.45E-15,-4.22E-15,-5.55E-15,0
0.6,1.35,0.153846154,0.000135994,-2.72004E-31,-0.000135994,-3.61605E-16,8.12731E-16,8.54519E-15,-3.54181E-15,-5.42789E-15,0
0.4,1.3,5.84021E-34,0.000135938,-8.24049E-31,-0.000135938,-2.27376E-16,7.12565E-16,9.44652E-15,-4.22229E-15,-5.54849E-15,0
0.5,1.5,0.115384615,0.000135833,-1.06224E-31,-0.000135833,-2.54864E-16,7.21319E-16,1.01541E-14,-4.53421E-15,-5.95266E-15,0
0.7,1.5,0.269230769,0.000135382,1.44207E-30,-0.000135382,-1.96265E-16,8.25104E-16,8.84467E-15,-3.61185E-15,-5.66961E-15,0
0.7,1.15,0.076923077,0.000135164,-2.25328E-31,-0.000135164,-4.46851E-16,9.28171E-16,7.46609E-15,-3.00997E-15,-4.99627E-15,0
0.7,1.1,0.038461538,0.00013512,-3.86323E-32,-0.00013512,-1.53052E-16,9.44922E-16,7.3605E-15,-2.992E-15,-4.92542E-15,0
0.6,1.25,0.115384615,0.000135092,-6.43764E-32,-0.000135092,-5.06205E-16,8.39443E-16,8.03118E-15,-3.27951E-15,-5.203E-15,0
0.7,1.05,1.5E-33,0.000135,1.03E-31,-0.000135,-2.08E-16,9.62E-16,7.26E-15,-2.98E-15,-4.86E-15,0
0.7,1.2,0.115384615,0.00013496,-5.15056E-32,-0.00013496,-9.03104E-16,9.11792E-16,7.57652E-15,-3.03103E-15,-5.06923E-15,0
0.7,1.05,3.55944E-34,0.000134922,-1.80256E-31,-0.000134922,-2.13622E-16,9.61976E-16,7.25799E-15,-2.97626E-15,-4.85574E-15,0
0.5,1.3,0.076923077,0.00013479,8.75542E-31,-0.00013479,-2.92183E-16,7.69904E-16,8.806E-15,-3.76598E-15,-5.42169E-15,0
0.7,1.25,0.153846154,0.000134287,-2.44637E-31,-0.000134287,-8.30061E-16,8.95865E-16,7.69577E-15,-3.05733E-15,-5.14623E-15,0
0.5,1.1,-9.88E-35,0.000134,1.29E-32,-0.000134,-1.85E-16,8.22E-16,7.77E-15,-3.24E-15,-4.97E-15,0
0.5,1.1,3.935E-34,0.000133521,-9.01292E-32,-0.000133521,-2.03839E-16,8.22456E-16,7.7703E-15,-3.23915E-15,-4.96559E-15,0
0.4,1.5,0.038461538,0.00013343,-5.40784E-31,-0.00013343,-1.28553E-16,6.6551E-16,1.08506E-14,-5.02647E-15,-6.10109E-15,0
0.6,1.45,0.192307692,0.000133172,2.57427E-32,-0.000133172,-3.12333E-16,7.87131E-16,9.12092E-15,-3.84266E-15,-5.67705E-15,0
0.5,1.45,0.115384615,0.000133161,3.10627E-31,-0.000133161,-2.94131E-16,7.33141E-16,9.77928E-15,-4.30732E-15,-5.81667E-15,0
0.4,1.25,-6.92E-35,0.000133,1.22E-31,-0.000133,-1.78E-16,7.25E-16,9.08E-15,-4E-15,-5.42E-15,0
0.7,1.3,0.192307692,0.000132737,1.08155E-30,-0.000132737,-6.52507E-16,8.80455E-16,7.83084E-15,-3.09285E-15,-5.23034E-15,0
0.4,1.25,-4.53399E-33,0.000132618,-2.57509E-31,-0.000132618,-1.80558E-16,7.24623E-16,9.08242E-15,-4.00252E-15,-5.4163E-15,0
0.4,1.45,0.038461538,0.000131328,-5.15074E-32,-0.000131328,-1.33691E-16,6.77012E-16,1.04665E-14,-4.79336E-15,-5.96164E-15,0
0.6,1.05,1.64963E-31,0.00013107,1.28767E-32,-0.00013107,-3.11062E-16,8.98752E-16,7.35683E-15,-3.01367E-15,-4.85395E-15,0
0.6,1.05,2.68E-33,0.000131,-2.19E-31,-0.000131,-1.83E-16,8.99E-16,7.36E-15,-3.01E-15,-4.85E-15,0
0.7,1.45,0.269230769,0.000130773,-4.76401E-31,-0.000130773,-4.33749E-16,8.38002E-16,8.50246E-15,-3.40548E-15,-5.54674E-15,0
0.6,1.1,0.038461538,0.000130718,-5.85846E-31,-0.000130718,-9.20057E-16,8.82988E-16,7.46956E-15,-3.03477E-15,-4.92979E-15,0
0.6,1.3,0.153846154,0.000130718,1.93126E-31,-0.000130718,-4.03805E-16,8.25629E-16,8.21427E-15,-3.34253E-15,-5.30923E-15,0
0.5,1.25,0.076923077,0.000130375,5.30307E-36,-0.000130375,-3.16945E-16,7.82405E-16,8.46031E-15,-3.55774E-15,-5.29682E-15,0
0.5,1.4,0.115384615,0.000130209,-1.28756E-31,-0.000130209,-2.69943E-16,7.45107E-16,9.4091E-15,-4.08341E-15,-5.68245E-15,0
0.5,1.15,0.038461538,0.000130185,4.12022E-31,-0.000130185,-4.28895E-16,8.08585E-16,7.93531E-15,-3.28983E-15,-5.06602E-15,0
0.7,1.35,0.230769231,0.000129885,1.93135E-31,-0.000129885,-4.3333E-16,8.65574E-16,7.98839E-15,-3.14163E-15,-5.3242E-15,0
0.6,1.15,0.076923077,0.000129826,1.07833E-30,-0.000129826,-7.58985E-16,8.6773E-16,7.59225E-15,-3.06187E-15,-5.0101E-15,0
0.6,1.4,0.192307692,0.000129289,-3.54086E-31,-0.000129289,-3.15599E-16,7.99553E-16,8.76632E-15,-3.62864E-15,-5.54898E-15,0
0.4,1.4,0.038461538,0.000129032,-3.34762E-31,-0.000129032,-1.64173E-16,6.88639E-16,1.00855E-14,-4.56234E-15,-5.82337E-15,0
0.4,1.2,9.02E-35,0.000129,-1.34E-31,-0.000129,-1.6E-16,7.37E-16,8.72E-15,-3.79E-15,-5.29E-15,0
0.4,1.2,5.63794E-34,0.000128912,1.03002E-31,-0.000128912,-1.73871E-16,7.36842E-16,8.72472E-15,-3.7868E-15,-5.28662E-15,0
0.6,1.2,0.115384615,0.000127954,-5.66528E-31,-0.000127954,-6.06335E-16,8.53014E-16,7.73224E-15,-3.09917E-15,-5.09804E-15,0
0.5,1.35,0.115384615,0.00012693,-4.44212E-31,-0.00012693,-2.58648E-16,7.57228E-16,9.04434E-15,-3.86295E-15,-5.55035E-15,0
0.4,1.35,0.038461538,0.000126512,1.03005E-31,-0.000126512,-2.05799E-16,7.00397E-16,9.70816E-15,-4.33373E-15,-5.68648E-15,0
0.5,1.05,2.2E-34,0.000126,6.44E-32,-0.000126,-2.09E-16,8.36E-16,7.48E-15,-3.07E-15,-4.87E-15,0
0.5,1.05,3.73584E-34,0.00012559,1.80264E-31,-0.00012559,-2.06957E-16,8.36209E-16,7.48483E-15,-3.06675E-15,-4.86636E-15,0
0.7,1.15,0.115384615,0.000125535,-7.33918E-31,-0.000125535,-5.79648E-16,9.27142E-16,7.31892E-15,-2.87358E-15,-4.9845E-15,0
0.7,1.4,0.269230769,0.000125534,1.15883E-31,-0.000125534,-3.98885E-16,8.51171E-16,8.17069E-15,-3.20535E-15,-5.42835E-15,0
